#Digilent WaveForms Network Analyzer - Bode
#Device Name: Discovery2
#Serial Number: SN:210321B211C7
#Date Time: 2024-12-03 12:34:19.900
#Start: 10 Hz
#Stop: 2e+06 Hz
#Steps: 151
#Wavegen: Wavegen C1
#Amplification: 1 X
#Settle: 10 ms
#MinPeriods: 16 
#Channel: Channel 1
#Range: 5.54176 V
#Offset: 0.000158986 V
#Relative: no
#Channel: Channel 2
#Range: 61.7591 V
#Offset: 7.99854 V
#Relative: yes
#Power Supplies: OFF
#Positive Supply: Rdy
#Voltage: 1 V
#Negative Supply: Rdy
#Voltage: -1 V

Frequency (Hz),Channel 1 Magnitude (dB),Channel 2 Magnitude (dB),Channel 2 Phase (deg)
10,0.02886971489565873,-0.01423979207729905,-82.59538203822308
10.84776329307037,0.0286120277599753,0.7072550857988363,-83.52203601857579
11.76739684624847,0.02826470039740401,1.396969132325153,-84.55533934691044
12.76499355637263,0.02966861968326034,2.083630690716604,-85.54422110656684
13.84716285370986,0.02807611079793186,2.789160771101979,-86.3687342790582
15.02107449176414,0.02979082564695552,3.495348262987143,-87.32640896521303
16.29450604942344,0.03008763781124767,4.20805983677341,-88.30123206284684
17.67589446016487,0.03042517348032865,4.918338172639174,-89.20292473183292
19.17439190971621,0.0306460199183531,5.633343290277627,-90.04582317260557
20.7999264725165,0.02884800683389526,6.349753156476106,-90.95576953058925
22.56326788871268,0.02955797252158852,7.060203765896533,-91.85448674457962
24.47609891748909,0.02938713527588691,7.768311767528734,-92.75911182368472
26.55109273946971,0.03118436339258053,8.478806925592602,-93.69879525893441
28.80199692101268,0.02850608287680523,9.179363210076938,-94.63250837413568
31.24372449668873,0.03035661148143994,9.887188078854146,-95.63076745198502
33.8924527733983,0.02938104632755869,10.58006778924123,-96.65115114053907
36.76573051073913,0.02993990103073742,11.27056119585673,-97.73390294824362
39.88259418773125,0.0278483785291623,11.95602880016631,-98.82087583646984
43.26369412620929,0.0322073396124154,12.6312437101971,-99.9223478008567
46.93143130649175,0.03090531241332603,13.30242178966028,-101.159647715109
50.91010578178139,0.02954579197531369,13.97326618876311,-102.4505986541101
55.2260776745938,0.02988218876831065,14.6298877840377,-103.7499138958584
59.90794182187106,0.02965332927872823,15.28456747316975,-105.1685654763962
64.98671722586884,0.02848559466804437,15.9192821595038,-106.6580890668827
70.49605256599227,0.03082130363013565,16.54424296449578,-108.2246092508429
76.47244913317289,0.03060104723294578,17.16780801124513,-109.8584053345621
82.95550266380242,0.03069923986603225,17.77586387967971,-111.5880267355506
89.98816567545957,0.029725962167586,18.3717230224908,-113.4125137091343
97.61703204249856,0.02924825600855128,18.94752526505891,-115.3203665827744
105.892645696909,0.03055422083234108,19.50370169987831,-117.2814657794942
114.8698354997034,0.03248997859482312,20.04124412756593,-119.3626774508744
124.6080785014715,0.03065575350581774,20.55934070479287,-121.5103133000909
135.1718939988294,0.02790205115915401,21.04848187870618,-123.7031640015267
146.6312709975298,0.02982587110844911,21.51608041632437,-125.9738736860806
159.0621319143258,0.02879546094034892,21.95911872962439,-128.2996218740256
172.5468355897737,0.03117098939139044,22.37342083803767,-130.6449922854142
187.1747229446196,0.03385756769246218,22.75413811277424,-133.0068217416235
203.042708894926,0.0330033186241588,23.1088672337871,-135.3955501027233
220.2559244475949,0.03192656454305652,23.43948968543933,-137.7452093481565
238.9284132303899,0.03346444528774443,23.73803902826209,-140.0918343654864
259.1838870712169,0.03100125505029854,24.00925650117906,-142.39757953887
281.1565456326443,0.03068782120122492,24.25495599399468,-144.6405902177331
304.9919655320261,0.03282346849415125,24.4714867282784,-146.8503248279054
330.8480648379694,0.02888080796087972,24.67242554642621,-148.9502458448842
358.8961493332689,0.02825758703235685,24.84652998517856,-151.0054386350105
389.3220474761737,0.03336321437593743,25.00069470691997,-152.9528045503557
422.3273415795029,0.0320350110664715,25.13429326083352,-154.8002415468252
458.1307033646125,0.03185561556168198,25.25372137950978,-156.5519274839866
496.9693427387151,0.03376008121893314,25.35633521513889,-158.2378578893016
539.1005793942338,0.03513775700184002,25.44876983699818,-159.8183506464951
584.8035476425728,0.03184199298926019,25.52192534513618,-161.2734167911327
634.3810457774439,0.03387250971810515,25.59406671996601,-162.6694938781985
688.1615422204138,0.02927503751628323,25.65598209107255,-163.9725014192309
746.5013517401288,0.03177573486864767,25.70906112906865,-165.211089514333
809.7869961633985,0.03122443862852633,25.75005159999711,-166.3295949834852
878.4377652187025,0.03336827390664745,25.78737967587723,-167.3654284482182
952.9084944786202,0.03123978388614427,25.82123159032331,-168.3800358405922
1033.692578806012,0.0261060874948377,25.8533431332628,-169.3105345862317
1121.325241269111,0.02670848590938,25.87586768126242,-170.1786649131101
1216.387079183232,0.02756904707366582,25.90381060187298,-170.9476628511992
1319.507910772895,0.03214539592309641,25.91640904440795,-171.7176029154337
1431.370947939817,0.03896106643372128,25.9307955255721,-172.4235217165713
1552.717322782888,0.03677173401145201,25.94663119694171,-173.067009466198
1684.350997859868,0.04065034500289843,25.96903261144194,-173.6449209814705
1827.144092723075,0.03854457234712161,25.97809635113617,-174.2143613517332
1982.04266201917,0.03842871867932678,25.99269296631515,-174.7678875127049
2150.072963435102,0.02997778425826794,26.00583216621236,-175.2984119262316
2332.348257017431,0.02501325213733512,26.0249929542912,-175.765922141252
2530.076180913036,0.03632849292161115,26.03623930052782,-176.2707418963912
2744.566752398006,0.03622105223565351,26.04630535642666,-176.6865219121088
2977.241047204444,0.04310522672059523,26.05695623430244,-177.1305448969558
3229.640614648674,0.03301318184631774,26.06881254072593,-177.5662990481566
3503.437690939509,0.04323846593060078,26.07980261569811,-177.9984459673384
3800.44627833328,0.04267610651772556,26.09272637202536,-178.4106682517866
4122.634163538966,0.04282509379979038,26.10589826249796,-178.8319251753976
4472.135954999579,0.05068537543653277,26.11432394707109,-179.2908791394413
4851.267225426465,0.04183698085199105,26.1306693027183,-179.6993265302698
5262.539853285646,0.04158230494715288,26.14036542517705,179.8313150475771
5708.678664879192,0.0406426660139084,26.1457357529987,179.3802770760889
6192.639487281042,0.05095423089736989,26.15157678289616,178.8669573203166
6717.628731734537,0.03484431972352955,26.1530368397382,178.344714488534
7287.124637258479,0.04473696933407965,26.1585232888277,177.8728579984256
7904.900315208114,0.04895160183683526,26.16133040161343,177.3087764728147
8575.0487474695,0.05261454662658274,26.1546873684992,176.7259483976578
9302.009903908862,0.04834261146164973,26.15307322796265,176.1425301980617
10090.60015873995,0.04537088449614191,26.13876599658825,175.5888198982171
10946.04420070293,0.06553245512368257,26.1273506712239,174.9662653104415
11874.00964847109,0.05396432372667494,26.11268844940558,174.2979381923753
12880.6446006248,0.06345014472099245,26.10134103712544,173.6186642874273
13972.61836897428,0.06605769751911365,26.08385721344881,172.9108550129143
15157.16566510397,0.07044084848985337,26.06360109231335,172.1630092559919
16442.13453289015,0.06579968376605515,26.04331748097819,171.3892619769663
17836.03834456102,0.07350313968759033,26.01404547331341,170.6022577773524
19348.11220479247,0.0610720058357448,25.98747875932132,169.7109998882572
20988.37413653544,0.0738929420858028,25.95531932511289,168.8033068205258
22767.69145395364,0.07963891947703713,25.91694674490987,167.7796925156613
24697.85276221502,0.07589807114363972,25.87182005908048,166.7831620285078
26791.64606116125,0.07184415660830253,25.82970576597767,165.6228409568678
29062.94347031983,0.08559984929340711,25.76948168090067,164.4419880235296
31526.79313659146,0.08665677539858513,25.70888473804733,163.0876103662272
34199.51893353393,0.09482336295998069,25.6365234020378,161.8320227474397
37098.82861278544,0.08327885494293122,25.57029037889132,160.3109353230633
40243.93112416826,0.08307625406949319,25.46314393331119,158.8818684378448
43655.66388176041,0.09834343449644449,25.35708184394714,157.2236112949494
47356.63081911784,0.09626978416556639,25.24876076452656,155.560798112656
51371.3521483111,0.1080299963447287,25.10810001698538,153.7301800978527
55726.42681498407,0.1067453837638302,24.95619262287408,151.8283915839594
60450.70872575564,0.1155294100839745,24.78054847116954,149.8994125607748
65575.497915534,0.1131527091821934,24.58846630073179,147.8518219728622
71134.74792129421,0.1171503265972316,24.3811209849937,145.6794230416298
77165.29073624278,0.1323108397224404,24.12235597210585,143.5992408615025
83707.08083477178,0.1216267150936634,23.86747644787611,141.3473186050041
90803.45988495114,0.1463413188624668,23.5741661589014,139.1783977349195
98501.44390237592,0.1446600642629401,23.25408635924666,136.7888911436053
106852.0347478624,0.1321681325892503,22.91731499789295,134.5350578129096
115910.5580327741,0.1622645085854827,22.53640924927966,132.3613015622525
125737.0296707228,0.1458530000288974,22.12834508016386,130.0524470907436
136396.5535041766,0.1421838205676662,21.71251780708668,127.8242977910689
147959.7526403915,0.1480914571754432,21.24521475220553,125.548038013934
160503.237354421,0.1675232156196992,20.76010285449797,123.6267955299904
174110.1126592249,0.1328372929995156,20.27444349491615,121.3833401633879
188870.5289057084,0.1274245605794509,19.74874672135073,119.4841707918648
204882.279060613,0.1228455493095315,19.21543774799115,117.6158191651911
222251.4466194315,0.1296994883157948,18.66915314802682,115.6360934926309
241093.1084470057,0.1268123066268216,18.05549584226145,114.1283410021852
261532.0972023662,0.1013022338135653,17.46047527914428,112.4999790355569
283703.8283991537,0.1026786059695481,16.85393427334576,110.9733491656489
307755.1975811874,0.09935079465319485,16.24361760988684,109.4573006723888
333845.5535572823,0.09815138013600851,15.62627036228519,107.9864731741827
362147.7541433441,0.07600375965580265,15.00751153571426,107.0322980621098
392849.3114064041,0.07575055422125397,14.34251057379747,105.8576040787811
426153.6339982355,0.0597224572546387,13.67879818321736,104.5775751769798
462281.3748094603,0.05054300484895551,13.04673210138015,103.4632675478408
501471.8928728169,0.04918623111618898,12.38964503141703,102.3981296262277
543984.8392012253,0.02932313290567971,11.69217749349898,101.4681260873982
590101.8770673838,0.006622369917203347,11.03828394685832,100.5638119674035
640128.5481223483,-0.00185290955977962,10.36239411105795,100.0086555747741
694396.2967168038,0.001341026097051297,9.685359835820496,99.08636603470407
753264.6658368545,-0.01257749478172322,9.01644496912056,98.49866736554361
817123.6792031936,-0.01527758955923892,8.333809801505421,97.74930998870413
886396.4253159013,-0.03335479330183019,7.605984144003576,97.04333441485494
961541.8605650611,-0.04071535622458609,6.95448597347649,96.41329406671406
1043057.849978826,-0.05010416467371138,6.255792719638372,95.91486042341623
1131484.465754921,-0.06240857066521662,5.543913715305944,95.59413707576988
1227407.565429555,-0.08200421156602547,4.848475936823343,94.84255470984611
1331462.673390359,-0.08580958845809158,4.207302366388453,94.49168049453031
1444339.191449728,-0.09713037758947275,3.483868226255201,93.95383208787443
1566784.966375128,-0.1194436962094269,2.819639448768239,93.64677595996943
1699611.24463786,-0.1463844474478038,2.169045062795574,93.26252148967869
1843698.04720722,-0.1674178254473448,1.526475583183969,92.72978301874707
2000000,-0.1983234130019812,0.9179064955003027,92.24601088179
